! MARKI MICROWAVE INC.
! Email:             	info@markimicrowave.com   				Phone:   408-778-4200
! Model Number:      	BAL-0006SM						Date:    12/12
! Filename:		BAL-0006SM.S3P						Version: 1.0
! Description:       	3-port S-parameter data for Balun BAL-0006SM
! Frequency Range: 	10 MHz to 6 GHz		
! Port Configuration:	PORT 1: OUTPUT (0 DEGREE), PORT 2: OUTPUT (180 DEGREE), PORT 3:COMMON 


! S3P File: Measurements: Mag<S11> Ang<S11> Mag<S12> Ang<S12> Mag<S13> Ang<S13>! row 1 
!			  Mag<S21> Ang<S21> Mag<S22> Ang<S22> Mag<S23> Ang<S23>! row 2 
!			  Mag<S31> Ang<S31> Mag<S32> Ang<S32> Mag<S33> Ang<S33>! row 3 

# Hz S  dB   R 50
10000000 -13.558628 166.38173 -9.329711 4.9876957 -6.9041076 -0.65391111
-9.337347 4.3891134 -13.426582 165.45294 -6.9480577 179.65132
-6.907486 0.18568747 -6.9824343 -178.97035 -20.15481 165.04112
17487500 -13.645711 167.83664 -9.3167009 3.7007418 -6.9037833 -1.1838248
-9.321104 3.2080212 -13.531997 166.96909 -6.9415574 179.09052
-6.90939 -0.56339836 -6.9747081 -179.85548 -20.287502 166.59445
24975000 -13.724753 169.3347 -9.3064575 2.2980871 -6.904614 -1.8057181
-9.3053894 1.9195828 -13.633948 168.52881 -6.9357948 178.43057
-6.9122486 -1.4007245 -6.9681244 179.16676 -20.416405 168.25313
32462500 -13.793815 170.82402 -9.2980709 0.7983067 -6.9068007 -2.523277
-9.2928476 0.53369665 -13.726514 170.1091 -6.9309788 177.6848
-6.9168186 -2.3226175 -6.9615731 178.10112 -20.535152 169.99355
39950000 -13.857363 172.31328 -9.2948112 -0.79323596 -6.9116993 -3.3253694
-9.2851906 -0.9526034 -13.814044 171.66556 -6.9281697 176.8481
-6.9227614 -3.3252349 -6.9576831 176.95009 -20.6444 171.72679
47437500 -13.915327 173.78809 -9.2963037 -2.4622202 -6.91682 -4.2107587
-9.2820358 -2.5232821 -13.896563 173.19991 -6.927177 175.91748
-6.9304996 -4.4181247 -6.9547791 175.71045 -20.747337 173.4364
54925000 -13.91063 174.53314 -9.3182354 -3.6087527 -6.9290385 -5.0816288
-9.3076 -3.644697 -13.902653 173.99345 -6.9392257 175.00264
-6.9412689 -5.2586718 -6.9633484 174.81369 -20.775677 174.57005
62412500 -13.87566 174.95166 -9.3434391 -4.5677857 -6.9410768 -5.9118199
-9.3343735 -4.5906887 -13.873302 174.45499 -6.9509687 174.13271
-6.9525194 -6.0409064 -6.9706573 173.9895 -20.753309 175.32472
69900000 -13.822908 175.10092 -9.3711443 -5.4097853 -6.9535112 -6.7059331
-9.3615122 -5.4127474 -13.82592 174.61531 -6.9648089 173.31131
-6.9634371 -6.7938666 -6.9814067 173.19138 -20.70076 175.75533
77387500 -13.761921 175.03441 -9.3973103 -6.1857309 -6.9650469 -7.4933777
-9.3902445 -6.1809635 -13.768106 174.56805 -6.9762897 172.50655
-6.9748826 -7.5396204 -6.989305 172.42058 -20.645273 175.96429
84875000 -13.700632 174.83896 -9.4252443 -6.9170895 -6.9766078 -8.2533607
-9.4176378 -6.8981009 -13.712173 174.3347 -6.987534 171.71884
-6.9861822 -8.2672424 -6.9995613 171.66269 -20.583128 176.03348
92362500 -13.641095 174.52885 -9.4531326 -7.5890641 -6.9877467 -9.0027065
-9.4467316 -7.5746183 -13.655023 173.99083 -6.9983954 170.94977
-6.997108 -8.9842567 -7.0091515 170.91922 -20.518932 175.90977
99850000 -13.587207 174.16887 -9.4824324 -8.2185221 -6.9986038 -9.7309837
-9.4756432 -8.2092276 -13.603274 173.56244 -7.0091982 170.18954
-7.0076284 -9.6879015 -7.020319 170.18793 -20.460014 175.68332
107337500 -13.534387 173.74113 -9.5084829 -8.8159571 -7.0084853 -10.450752
-9.5017138 -8.7913532 -13.551229 173.10002 -7.0192952 169.44438
-7.0177398 -10.387843 -7.030457 169.46278 -20.40501 175.43077
114825000 -13.483927 173.27673 -9.5314808 -9.3818493 -7.0186248 -11.159582
-9.5250292 -9.338686 -13.499166 172.5916 -7.0281963 168.71724
-7.02634 -11.066445 -7.0392604 168.75984 -20.351969 175.17123
122312500 -13.435675 172.77277 -9.5546751 -9.9324265 -7.0272069 -11.864504
-9.5485582 -9.8900194 -13.452631 172.04329 -7.0366144 167.99606
-7.0356655 -11.750097 -7.0479293 168.05257 -20.302629 174.81499
129800000 -13.392266 172.21689 -9.5761414 -10.457854 -7.0344114 -12.555542
-9.5693274 -10.41756 -13.409689 171.44875 -7.0444884 167.27092
-7.0446596 -12.423804 -7.0558329 167.36246 -20.246309 174.41272
137287500 -13.353005 171.65306 -9.5969954 -10.967372 -7.0428624 -13.239271
-9.5899754 -10.929879 -13.369969 170.82796 -7.0520296 166.56558
-7.0523348 -13.098744 -7.0643916 166.66258 -20.207134 174.00565
144775000 -13.31921 171.07027 -9.6166658 -11.470191 -7.0512667 -13.91194
-9.6087265 -11.428394 -13.332426 170.19328 -7.0602736 165.86337
-7.059391 -13.772617 -7.0730872 165.96947 -20.17086 173.56256
152262500 -13.287062 170.47159 -9.6355391 -11.948569 -7.0585704 -14.58513
-9.6265497 -11.917302 -13.300938 169.55832 -7.067307 165.1725
-7.0670958 -14.435164 -7.0817466 165.28667 -20.137131 173.09444
159750000 -13.258318 169.86748 -9.6518631 -12.415536 -7.0658989 -15.245806
-9.6427155 -12.385925 -13.269193 168.9144 -7.0746412 164.49101
-7.0748096 -15.093618 -7.0904646 164.60773 -20.109329 172.64343
167237500 -13.231831 169.22827 -9.6651211 -12.882322 -7.0724964 -15.904256
-9.6566572 -12.857674 -13.238908 168.27014 -7.0823569 163.81078
-7.0814714 -15.759301 -7.0978069 163.92902 -20.085701 172.14137
174725000 -13.208212 168.58258 -9.6774645 -13.340697 -7.0777702 -16.566153
-9.6686049 -13.328575 -13.2104 167.60254 -7.0885487 163.12602
-7.0872521 -16.421539 -7.1044121 163.25368 -20.068567 171.59111
182212500 -13.187125 167.90222 -9.6893702 -13.805623 -7.0840793 -17.219109
-9.679225 -13.803548 -13.186283 166.91214 -7.0950766 162.45425
-7.0934305 -17.087311 -7.1122599 162.56892 -20.052752 171.05235
189700000 -13.16924 167.21709 -9.6998377 -14.271284 -7.0899129 -17.877892
-9.6894846 -14.26684 -13.164232 166.22163 -7.1015821 161.77084
-7.0991726 -17.754854 -7.119276 161.88725 -20.038662 170.43668
197187500 -13.153087 166.52357 -9.7094269 -14.738966 -7.0972786 -18.544117
-9.6991587 -14.730886 -13.14523 165.52739 -7.1081109 161.09482
-7.1036139 -18.428858 -7.1254601 161.19461 -20.035326 169.80159
204675000 -13.137853 165.82797 -9.7174959 -15.201503 -7.1020041 -19.213455
-9.7074633 -15.198437 -13.129721 164.84657 -7.1142912 160.41786
-7.108314 -19.094931 -7.1306705 160.51685 -20.027683 169.20609
212162500 -13.121862 165.13148 -9.7244139 -15.664326 -7.1055098 -19.878826
-9.7136602 -15.660937 -13.113605 164.16153 -7.1184216 159.7448
-7.1131086 -19.748495 -7.13592 159.83803 -20.024151 168.5961
219650000 -13.109324 164.42381 -9.7302494 -16.118074 -7.1098709 -20.531796
-9.7178135 -16.122112 -13.099027 163.47345 -7.1238747 159.06297
-7.1167173 -20.414824 -7.1403146 159.16414 -20.020796 167.95888
227137500 -13.095778 163.73843 -9.7351694 -16.57609 -7.1126828 -21.188244
-9.7211351 -16.575363 -13.089224 162.79636 -7.1283188 158.38249
-7.1193442 -21.078133 -7.1446562 158.48421 -20.01964 167.354
234625000 -13.088129 163.04646 -9.7410088 -17.040991 -7.1172647 -21.850079
-9.7264786 -17.025848 -13.081416 162.09415 -7.132163 157.71004
-7.1245356 -21.733761 -7.1489058 157.79393 -20.015409 166.75114
242112500 -13.082609 162.37195 -9.7448788 -17.503172 -7.120594 -22.50737
-9.7333574 -17.486214 -13.075287 161.3934 -7.1370511 157.03479
-7.1284437 -22.391487 -7.1519604 157.11757 -20.010115 166.16344
249600000 -13.072713 161.73068 -9.7463779 -17.958632 -7.1227236 -23.179823
-9.7374382 -17.931429 -13.070697 160.72447 -7.1409302 156.34312
-7.1311288 -23.047079 -7.1550612 156.44377 -20.009733 165.54289
257087500 -13.066371 161.0616 -9.7464819 -18.411118 -7.125402 -23.838417
-9.7393837 -18.388252 -13.066769 160.0569 -7.1447639 155.66039
-7.1336164 -23.695799 -7.1578927 155.79153 -20.013025 164.9866
264575000 -13.058765 160.41159 -9.7467394 -18.868301 -7.1253109 -24.496437
-9.7407312 -18.839111 -13.059828 159.38297 -7.1468949 154.99263
-7.1366487 -24.348677 -7.1614017 155.12637 -20.023552 164.45154
272062500 -13.055477 159.72401 -9.7475958 -19.32616 -7.1274891 -25.154451
-9.7416735 -19.294231 -13.058595 158.69038 -7.1492743 154.3196
-7.1403689 -24.994413 -7.1643114 154.4623 -20.022545 163.90567
279550000 -13.053843 159.05919 -9.7482815 -19.798409 -7.1302514 -25.808769
-9.7420692 -19.748743 -13.059566 157.98645 -7.1533804 153.64558
-7.142293 -25.649559 -7.1673923 153.78546 -20.026472 163.33287
287037500 -13.051957 158.39554 -9.7478952 -20.273836 -7.1336961 -26.468287
-9.7444782 -20.208937 -13.059192 157.29471 -7.1563964 152.98047
-7.1463451 -26.301693 -7.1717854 153.11311 -20.037476 162.73462
294525000 -13.052676 157.70679 -9.7465172 -20.745319 -7.1372447 -27.13287
-9.7465725 -20.690203 -13.057908 156.59737 -7.159874 152.31679
-7.1499939 -26.956564 -7.1750331 152.44823 -20.03948 162.15602
302012500 -13.051354 157.0665 -9.7435398 -21.196636 -7.1403089 -27.793358
-9.7446127 -21.149729 -13.056899 155.92059 -7.1638017 151.64061
-7.1524677 -27.610399 -7.1772399 151.79906 -20.053133 161.56268
309500000 -13.049139 156.39525 -9.7422876 -21.657677 -7.1438427 -28.449753
-9.7406483 -21.602795 -13.061603 155.2496 -7.1672616 150.97331
-7.1543694 -28.253765 -7.18081 151.13982 -20.067169 160.99628
316987500 -13.051441 155.7043 -9.7408075 -22.130054 -7.1457925 -29.105114
-9.7390118 -22.075796 -13.061883 154.5715 -7.1701117 150.30116
-7.1562037 -28.902592 -7.1834831 150.47591 -20.079746 160.35416
324475000 -13.053928 155.0444 -9.7425222 -22.601269 -7.1480985 -29.760063
-9.7370834 -22.533966 -13.064602 153.88841 -7.1720052 149.64803
-7.1598301 -29.553968 -7.1871729 149.7771 -20.083855 159.78889
331962500 -13.057214 154.37405 -9.7402802 -23.067585 -7.1516395 -30.410936
-9.7339449 -23.007658 -13.070965 153.22862 -7.1750374 148.98602
-7.1616044 -30.217552 -7.1894426 149.09914 -20.079565 159.19473
339450000 -13.058977 153.7442 -9.7389307 -23.524845 -7.1532011 -31.062727
-9.7309256 -23.468946 -13.074212 152.57988 -7.1769633 148.3163
-7.1626277 -30.874451 -7.1921611 148.43269 -20.090458 158.61787
346937500 -13.060691 153.08813 -9.7367344 -23.977039 -7.1557536 -31.704348
-9.7288876 -23.940384 -13.079544 151.95096 -7.1802521 147.65567
-7.1641641 -31.523819 -7.1943855 147.77388 -20.094727 158.05661
354425000 -13.062158 152.45288 -9.7328548 -24.442343 -7.1563239 -32.359684
-9.7241993 -24.395735 -13.084764 151.31741 -7.1814222 146.99863
-7.164835 -32.168915 -7.1951275 147.10432 -20.104334 157.5779
361912500 -13.065566 151.82005 -9.7308226 -24.910316 -7.1569157 -33.012081
-9.7195778 -24.855181 -13.092587 150.69406 -7.1828427 146.32697
-7.1652904 -32.826126 -7.195745 146.43929 -20.115824 157.04578
369400000 -13.069838 151.17931 -9.7276735 -25.386246 -7.1563592 -33.658741
-9.7161551 -25.332018 -13.099711 150.06479 -7.1827688 145.67172
-7.16608 -33.473186 -7.1974616 145.77049 -20.124102 156.547
376887500 -13.073756 150.55867 -9.7248373 -25.862352 -7.1563172 -34.305576
-9.7121706 -25.810369 -13.105387 149.44055 -7.1835117 145.01404
-7.1672034 -34.138561 -7.1991544 145.09546 -20.13718 156.05972
384375000 -13.078244 149.93697 -9.7219496 -26.334122 -7.1583114 -34.948635
-9.7081261 -26.287693 -13.115733 148.79704 -7.1846619 144.36415
-7.169621 -34.791809 -7.2007694 144.4272 -20.151451 155.60345
391862500 -13.080938 149.31665 -9.7149258 -26.803064 -7.1580544 -35.598434
-9.7022409 -26.762512 -13.125513 148.15601 -7.18576 143.69675
-7.1688094 -35.450111 -7.2013097 143.77734 -20.167398 155.10242
399350000 -13.085959 148.68199 -9.7118988 -27.27672 -7.1598659 -36.248264
-9.6993141 -27.225765 -13.137918 147.51726 -7.1887684 143.03185
-7.1705213 -36.09399 -7.202755 143.12305 -20.193417 154.65442
406837500 -13.08998 148.04723 -9.7062206 -27.774597 -7.16048 -36.903744
-9.6941643 -27.717422 -13.150644 146.86554 -7.1894956 142.36916
-7.1703835 -36.754803 -7.2041426 142.44069 -20.208771 154.12294
414325000 -13.096997 147.41083 -9.701561 -28.264084 -7.1615143 -37.571091
-9.6900749 -28.213064 -13.160954 146.20015 -7.1903067 141.69608
-7.1721888 -37.421738 -7.2056961 141.76852 -20.232569 153.61946
421812500 -13.102628 146.76036 -9.6961279 -28.750935 -7.161921 -38.226021
-9.6853848 -28.706921 -13.172248 145.5432 -7.1918936 141.02075
-7.1725173 -38.092117 -7.2062454 141.10101 -20.246031 153.04594
429300000 -13.108992 146.12959 -9.6910124 -29.245777 -7.1616173 -38.887039
-9.6796589 -29.188059 -13.184265 144.85371 -7.1923919 140.34604
-7.1730142 -38.739059 -7.2079234 140.42613 -20.260021 152.51309
436787500 -13.111968 145.49036 -9.6868067 -29.744143 -7.1627526 -39.553207
-9.6736174 -29.671568 -13.198478 144.17464 -7.1951985 139.66649
-7.1712637 -39.40453 -7.208899 139.75272 -20.276707 151.97165
444275000 -13.116564 144.85457 -9.6807709 -30.231501 -7.1648278 -40.224049
-9.6703558 -30.149487 -13.213367 143.48938 -7.1968842 138.9893
-7.1723042 -40.056629 -7.2093401 139.08627 -20.289118 151.40738
451762500 -13.119195 144.20798 -9.6748638 -30.710171 -7.164784 -40.882195
-9.6654568 -30.639997 -13.224925 142.81874 -7.1978683 138.31128
-7.1715236 -40.723503 -7.209559 138.41406 -20.303261 150.88533
459250000 -13.122095 143.57603 -9.6688385 -31.195339 -7.1648078 -41.539673
-9.6605902 -31.121698 -13.237893 142.1422 -7.1974368 137.64287
-7.1732922 -41.379669 -7.2120414 137.74312 -20.317062 150.38107
466737500 -13.123601 142.95909 -9.6620388 -31.691278 -7.1645045 -42.203941
-9.6542721 -31.614183 -13.247679 141.4409 -7.1974607 136.96124
-7.1729412 -42.033997 -7.212791 137.063 -20.330925 149.82666
474225000 -13.12932 142.33507 -9.65627 -32.16716 -7.1647334 -42.861263
-9.6490593 -32.095402 -13.25758 140.75154 -7.1994824 136.28629
-7.1744914 -42.693058 -7.2130785 136.41228 -20.354574 149.35745
481712500 -13.131222 141.71063 -9.6483202 -32.653435 -7.1643863 -43.518398
-9.641572 -32.585114 -13.267091 140.06354 -7.1994891 135.6144
-7.1744266 -43.350212 -7.215353 135.74182 -20.373707 148.84288
489200000 -13.133139 141.11374 -9.6403904 -33.14024 -7.1655393 -44.179653
-9.6339264 -33.080795 -13.275351 139.3674 -7.2008824 134.93776
-7.173604 -44.007454 -7.2157574 135.07361 -20.393463 148.42137
496687500 -13.139648 140.49875 -9.633399 -33.626663 -7.166934 -44.833218
-9.6295147 -33.569221 -13.283252 138.6922 -7.202764 134.27205
-7.175375 -44.661369 -7.2161059 134.4138 -20.42564 147.99925
504175000 -13.14556 139.88487 -9.6263857 -34.112194 -7.1671062 -45.495392
-9.624423 -34.070034 -13.289812 138.00095 -7.2025199 133.59134
-7.1764531 -45.320099 -7.216548 133.75067 -20.451122 147.53624
511662500 -13.150598 139.27119 -9.6194983 -34.616562 -7.1648998 -46.156891
-9.6151438 -34.57811 -13.2934 137.31107 -7.2008948 132.91112
-7.1754723 -45.985275 -7.2178788 133.07205 -20.476379 147.08459
519150000 -13.156466 138.68129 -9.6136332 -35.136951 -7.1658716 -46.822807
-9.6075611 -35.071396 -13.297397 136.61768 -7.2028618 132.2437
-7.1763873 -46.644844 -7.2187076 132.38754 -20.507658 146.62691
526637500 -13.165722 138.06885 -9.6083536 -35.648323 -7.1686859 -47.497936
-9.6029978 -35.587494 -13.300253 135.93364 -7.2058597 131.55765
-7.1752272 -47.314186 -7.2183189 131.70554 -20.543346 146.16386
534125000 -13.174213 137.47018 -9.6016798 -36.148643 -7.1676531 -48.167702
-9.5969267 -36.097065 -13.302765 135.28114 -7.2057643 130.88432
-7.1757779 -47.981373 -7.2203984 131.03294 -20.57736 145.70605
541612500 -13.180247 136.85887 -9.595293 -36.659191 -7.1677194 -48.832382
-9.5912704 -36.604099 -13.305327 134.62486 -7.205791 130.20938
-7.1767292 -48.642208 -7.2220001 130.35216 -20.607307 145.23897
549100000 -13.188448 136.28168 -9.589262 -37.162422 -7.1675472 -49.494434
-9.5841055 -37.09837 -13.306802 133.97859 -7.2055817 129.53645
-7.1770496 -49.303005 -7.2213144 129.68005 -20.637552 144.82243
556587500 -13.198025 135.66437 -9.5849018 -37.676353 -7.1676321 -50.161865
-9.5788984 -37.607327 -13.308882 133.32491 -7.2064776 128.86185
-7.1773386 -49.958488 -7.2230058 128.99802 -20.673178 144.35704
564075000 -13.203918 135.05153 -9.5778456 -38.18832 -7.1685309 -50.835041
-9.5721102 -38.133915 -13.308978 132.68842 -7.2063904 128.17464
-7.1768603 -50.631706 -7.2238693 128.31555 -20.696098 143.87502
571562500 -13.209812 134.43878 -9.5725842 -38.705338 -7.1696143 -51.493462
-9.5646782 -38.642311 -13.311811 132.06783 -7.2079291 127.51159
-7.1778908 -51.295826 -7.2254381 127.63133 -20.727858 143.44342
579050000 -13.216943 133.83315 -9.5670185 -39.205643 -7.1709957 -52.142181
-9.5594187 -39.148151 -13.31506 131.46793 -7.2095108 126.8468
-7.1800752 -51.950592 -7.2271461 126.96709 -20.761629 143.02821
586537500 -13.225276 133.23688 -9.5605154 -39.696213 -7.1717329 -52.805054
-9.5521994 -39.648159 -13.316766 130.88264 -7.2091188 126.17252
-7.1804366 -52.607883 -7.2287903 126.3122 -20.78886 142.64729
594025000 -13.229165 132.64412 -9.5547161 -40.201736 -7.1711941 -53.463165
-9.5438738 -40.155334 -13.320788 130.29205 -7.2085361 125.49972
-7.180758 -53.269146 -7.2292619 125.64308 -20.815563 142.20659
601512500 -13.233894 132.05409 -9.546792 -40.711849 -7.1729188 -54.120815
-9.537303 -40.672092 -13.324018 129.70326 -7.2100768 124.82729
-7.1809349 -53.940033 -7.2278504 124.97041 -20.840845 141.84558
609000000 -13.240997 131.49361 -9.5386896 -41.214283 -7.173758 -54.781002
-9.5295115 -41.173477 -13.326676 129.12636 -7.2105093 124.15456
-7.1802855 -54.604961 -7.2263308 124.29699 -20.867575 141.44264
616487500 -13.247992 130.91985 -9.5313644 -41.71981 -7.1750631 -55.442383
-9.5247793 -41.680359 -13.334044 128.54662 -7.2115231 123.48483
-7.1812596 -55.26646 -7.2272372 123.63193 -20.895124 141.05673
623975000 -13.255975 130.36327 -9.525053 -42.206501 -7.1755695 -56.091125
-9.5184259 -42.173412 -13.34061 127.99789 -7.2114105 122.81865
-7.1828718 -55.923622 -7.2272511 122.97631 -20.922995 140.67741
631462500 -13.261075 129.7934 -9.5184078 -42.704777 -7.1754084 -56.736294
-9.5115767 -42.675858 -13.348361 127.4514 -7.2129493 122.16483
-7.1829691 -56.589584 -7.2280545 122.30488 -20.954157 140.32622
638950000 -13.268905 129.23367 -9.5106707 -43.203182 -7.1743879 -57.392086
-9.5064754 -43.178112 -13.354718 126.88168 -7.2134418 121.48293
-7.1830139 -57.248486 -7.2281771 121.63461 -20.983242 139.95801
646437500 -13.276644 128.67522 -9.5032091 -43.709019 -7.1751533 -58.054367
-9.4991636 -43.68108 -13.362718 126.32234 -7.2142062 120.81482
-7.1825638 -57.913162 -7.2280102 120.95654 -21.019234 139.58359
653925000 -13.282417 128.08667 -9.4973087 -44.234844 -7.1741204 -58.72298
-9.4938421 -44.198578 -13.372591 125.757 -7.2151141 120.1347
-7.1833606 -58.579563 -7.2292027 120.27236 -21.050709 139.17763
661412500 -13.290477 127.52262 -9.4888964 -44.744389 -7.1737318 -59.37381
-9.4874735 -44.707184 -13.377936 125.18535 -7.2158279 119.47516
-7.1842723 -59.233505 -7.2296762 119.60215 -21.08193 138.84398
668900000 -13.29725 126.92251 -9.4845715 -45.263332 -7.172503 -60.037937
-9.4798431 -45.210052 -13.387246 124.59695 -7.2142363 118.80551
-7.1839638 -59.887619 -7.2312551 118.92723 -21.116657 138.4463
676387500 -13.301177 126.32304 -9.4792109 -45.783592 -7.1720443 -60.700676
-9.4727468 -45.723915 -13.397604 124.01718 -7.2158904 118.13927
-7.1841559 -60.543694 -7.2335086 118.25171 -21.14879 138.09106
683875000 -13.305871 125.72055 -9.4730682 -46.309986 -7.1712961 -61.373985
-9.4647293 -46.240952 -13.405585 123.44244 -7.2168875 117.45885
-7.1829052 -61.208603 -7.2331195 117.57037 -21.176865 137.7095
691362500 -13.309533 125.14066 -9.4660254 -46.832432 -7.1711278 -62.041431
-9.4575415 -46.764259 -13.415486 122.87288 -7.2167563 116.79166
-7.1824932 -61.877258 -7.233016 116.8859 -21.200588 137.33051
698850000 -13.314787 124.56099 -9.4596004 -47.349274 -7.1718049 -62.711784
-9.4495926 -47.269417 -13.425165 122.28267 -7.217144 116.1143
-7.1829915 -62.533211 -7.2335348 116.21116 -21.233438 136.93646
706337500 -13.318316 123.96712 -9.4523029 -47.870743 -7.1722136 -63.382095
-9.4412212 -47.796227 -13.436123 121.70696 -7.2169638 115.44555
-7.1828856 -63.198177 -7.2348413 115.5403 -21.260454 136.59059
713825000 -13.322373 123.38818 -9.4443102 -48.393906 -7.1719632 -64.048561
-9.4348717 -48.313412 -13.445174 121.11166 -7.21772 114.7694
-7.1828136 -63.859455 -7.2339749 114.86466 -21.283953 136.23163
721312500 -13.326707 122.80944 -9.434514 -48.908211 -7.1719551 -64.703392
-9.4265804 -48.832466 -13.456018 120.51968 -7.2163258 114.0966
-7.1818542 -64.521545 -7.2322698 114.18925 -21.310329 135.87968
728800000 -13.330667 122.21788 -9.4280119 -49.430958 -7.1717257 -65.375832
