# GHz S RI R 50

! Mag<S11dd> Ang<S11dd> Mag<S11dc> Ang<S11dc> Mag<S12ds> Ang<S12ds>! row 1 
! Mag<S11cd> Ang<S11cd> Mag<S11cc> Ang<S11cc> Mag<S12cs> Ang<S12cs>! row 2 
! Mag<S21sd> Ang<S21sd> Mag<S21sc> Ang<S21sc> Mag<S22ss> Ang<S22ss>! row 3 

1.000000000000000e-02 -5.4546759916148368e-01  2.3572776490321863e-02  1.1461291833171985e-03 -2.6433031892897753e-04  6.3708013914060513e-01 -5.5784142877278054e-03
                         1.1385306657846761e-03 -3.8440916439221873e-03  1.3513244445507777e-01  7.9391191308270326e-02  1.5969435052455962e-03 -1.7110610906156218e-03
                         6.3567476907174103e-01  6.7219039062931061e-03  2.7921750539797556e-03 -4.6527161299677478e-03 -9.4904471222831938e-02  2.5356589313850177e-02
1.748750000000000e-02 -5.4555633652398094e-01  2.5026333492155856e-02  9.8889601754126202e-04 -3.7116291165617256e-04  6.3724840109995662e-01 -1.1645568196763057e-02
                         9.9305398672783207e-04 -3.3175136088133134e-03  1.3723979437013303e-01  6.6243036004330111e-02  1.3577911186684827e-03 -1.5509613195293949e-03
                         6.3592279017379461e-01 -2.3393364052370193e-03  2.3767055404619970e-03 -3.9373646562847735e-03 -9.4108243752572832e-02  2.2429379552742882e-02
2.497500000000000e-02 -5.4547525173112132e-01  2.7147811580886451e-02  7.1982767949794785e-04 -5.0678402086809830e-04  6.3725917878845750e-01 -1.8777445872859014e-02
                         8.4518722951923420e-04 -2.7665278500322923e-03  1.3912526792078336e-01  5.2356541049192955e-02  1.1051081552419493e-03 -1.3477317070655953e-03
                         6.3594553976370294e-01 -1.2409474264590993e-02  1.9840880915488234e-03 -3.1892614081930385e-03 -9.3322754209073502e-02  1.9405842175808166e-02
3.246250000000001e-02 -5.4519926739865510e-01  2.9989795153829404e-02  4.5939270357759222e-04 -6.0293579336064928e-04  6.3706378122571194e-01 -2.6916785403221986e-02
                         6.8402098520015109e-04 -2.1842682169799579e-03  1.4064665002358043e-01  3.7961897458487069e-02  8.3779398926991271e-04 -1.1942515720506043e-03
                         6.3570958091524254e-01 -2.3435897477475005e-02  1.5511209276849408e-03 -2.4111046565653926e-03 -9.2594509507362685e-02  1.6337658300637208e-02
3.995000000000000e-02 -5.4447167881466807e-01  3.3566842993271367e-02  1.5917279636046912e-04 -7.2869337474589825e-04  6.3653716782840608e-01 -3.6019445909116904e-02
                         5.2467794580202121e-04 -1.6888751886383474e-03  1.4177331152494743e-01  2.3110341557492357e-02  5.4898355893178926e-04 -9.9774426420093550e-04
                         6.3508368022414985e-01 -3.5371587464668994e-02  1.1916997441954397e-03 -1.5969950486169737e-03 -9.1883322892237690e-02  1.3360453610988445e-02
4.743750000000000e-02 -5.4326769729441593e-01  3.7781481281060847e-02 -1.7450248393058594e-04 -8.5833642362403799e-04  6.3573554363796292e-01 -4.6090701451326134e-02
                         3.7280721431787178e-04 -1.2482637333039413e-03  1.4247379980840436e-01  7.9279826188330283e-03  3.2744413514327155e-04 -7.3892689342888837e-04
                         6.3405662984859301e-01 -4.8275152747165651e-02  8.3201779098924513e-04 -7.7889822869478889e-04 -9.1154315440439143e-02  1.0488232858073945e-02
5.492500000000000e-02 -5.4224305146862195e-01  4.1809789750877943e-02 -2.0512648719073703e-04 -8.3395978533860047e-04  6.3405402643445974e-01 -5.5913245004048283e-02
                         1.9952907021289490e-04 -1.0747535242725626e-03  1.4090297358494855e-01 -1.4901618309530208e-03  3.3070592478340354e-04 -4.9906190688191404e-04
                         6.3254755012778174e-01 -5.7817214419845810e-02  7.6745655893828381e-04 -4.7292346245686792e-04 -9.1046431113225426e-02  8.6544416556785554e-03
6.241250000000000e-02 -5.4171087741246082e-01  4.5930398825726394e-02 -2.2569714271001361e-04 -7.9397337147259185e-04  6.3228868536669336e-01 -6.5224325572215455e-02
                         1.1842912959977858e-04 -9.5837559219471777e-04  1.3858241364011400e-01 -8.5566583556341436e-03  3.3469412532831854e-04 -2.8284548774280425e-04
                         6.3100037411231591e-01 -6.6607199319615965e-02  6.4115428685042222e-04 -2.3697783485596773e-04 -9.1387561483223065e-02  7.4737313906209088e-03
6.990000000000000e-02 -5.4142396110813351e-01  5.0325383210419176e-02 -2.9942392272906047e-04 -8.2962964928393447e-04  6.3035230802816344e-01 -7.4019454512642496e-02
                         7.4452739977082238e-05 -8.8271004122412663e-04  1.3586479271186980e-01 -1.3831634690794577e-02  3.9881021414427223e-04 -1.4299025782208859e-04
                         6.2925572811997832e-01 -7.5047966621104592e-02  6.6057253302555545e-04  3.3845528640453614e-06 -9.1996038431234092e-02  6.8278813554129899e-03
7.738750000000000e-02 -5.4126723528135989e-01  5.5097848250792551e-02 -2.8691941338832114e-04 -8.2341388160133767e-04  6.2842985562457110e-01 -8.2660870832027195e-02
                        -9.6445971465575209e-06 -8.2507457077492588e-04  1.3296140057815053e-01 -1.7948540808120136e-02  4.0676410201465177e-04 -5.3100583301564374e-05
                         6.2750816331287762e-01 -8.3276092441101859e-02  5.4989300776846976e-04  1.4880665375312631e-04 -9.2610051881725705e-02  6.5339303238928313e-03
8.487500000000001e-02 -5.4101884109212750e-01  6.0120830299210122e-02 -3.7584143041172099e-04 -9.2901659898916660e-04  6.2643322426777581e-01 -9.1021085914667219e-02
                        -6.8512812661486455e-05 -8.5340902271335492e-04  1.3009179153109726e-01 -2.1182697948575295e-02  4.1608428101156596e-04  9.4720438772111500e-05
                         6.2559906036281088e-01 -9.1290114397781202e-02  5.3763306015266815e-04  3.1221732187685687e-04 -9.3282904700766278e-02  6.4682032513669052e-03
9.236250000000000e-02 -5.4068928687744255e-01  6.5231820406517330e-02 -3.9197700826631944e-04 -9.7969926081273198e-04  6.2438090182350825e-01 -9.9187752071517504e-02
                        -1.3466291293889876e-04 -9.2825814771102175e-04  1.2722366428849408e-01 -2.3671321103099975e-02  4.2387350539741225e-04  1.9814269918625753e-04
                         6.2364768841748730e-01 -9.9138581144686530e-02  5.1586930545258582e-04  4.5658292809087078e-04 -9.3960609114364296e-02  6.7190760429144151e-03
9.985000000000001e-02 -5.4017478711504430e-01  7.0308829161020034e-02 -4.4422178543532638e-04 -1.0874899928369111e-03  6.2226341693657028e-01 -1.0715584964400718e-01
                        -1.7667864524222032e-04 -1.0710758607765797e-03  1.2448589881756407e-01 -2.5634520802790300e-02  4.5381453753263497e-04  3.6622751466570681e-04
                         6.2158078936758554e-01 -1.0680644820892353e-01  5.6981639018117329e-04  5.9550368855224424e-04 -9.4572652559513609e-02  7.1386418055883116e-03
1.073375000000000e-01 -5.3974656149700395e-01  7.5331868802277352e-02 -4.7727842048473338e-04 -1.1965785297401068e-03  6.2012905456982881e-01 -1.1496942932026590e-01
                        -1.9745781002750151e-04 -1.0944453407687460e-03  1.2190316797105666e-01 -2.7140085898199457e-02  4.9110045122761198e-04  4.9596669324300719e-04
                         6.1948182036703725e-01 -1.1439458328050418e-01  6.0261933010820128e-04  7.2378796757558556e-04 -9.5140850454298806e-02  7.6034282960671853e-03
1.148250000000000e-01 -5.3937656663931177e-01  8.0324126202143686e-02 -4.8255824667174006e-04 -1.3363411049420095e-03  6.1796187881407794e-01 -1.2259667541823999e-01
                        -1.9695840674192888e-04 -1.1285002962442559e-03  1.1948755984487522e-01 -2.8280663732252367e-02  4.7226784735703042e-04  5.9671796470366783e-04
                         6.1743862725900034e-01 -1.2173254381860091e-01  6.4376630649626103e-04  8.4546614198722147e-04 -9.5687977161931295e-02  8.0835327110976313e-03
1.223125000000000e-01 -5.3885481573016458e-01  8.5414422452982433e-02 -5.2140547911488347e-04 -1.4160058398633658e-03  6.1578533395534341e-01 -1.3015008140004561e-01
                        -2.4798867164146920e-04 -1.2135924334968733e-03  1.1716770019488017e-01 -2.9212165667287252e-02  4.9184015399373476e-04  6.7881159714065298e-04
                         6.1527770862150877e-01 -1.2908403358512088e-01  6.5665328088430994e-04  9.6841419161954002e-04 -9.6180671374637275e-02  8.7277557323301655e-03
1.298000000000000e-01 -5.3827515688706040e-01  9.0545197730823673e-02 -5.6509073912466151e-04 -1.4792393434224611e-03  6.1359686050165907e-01 -1.3763042096325201e-01
                        -2.6649552027903367e-04 -1.2967099333950072e-03  1.1507599717035753e-01 -2.9811600215314305e-02  5.6436352684949807e-04  8.4939773423137318e-04
                         6.1310102418180557e-01 -1.3626483456811356e-01  6.4850098415762799e-04  1.0559118996570540e-03 -9.6742279681420740e-02  9.4639800921846439e-03
1.372875000000000e-01 -5.3758414975559887e-01  9.5639223733789094e-02 -5.9479300783458523e-04 -1.5772838188319943e-03  6.1132024476463376e-01 -1.4492455802710277e-01
                        -2.9065909146905322e-04 -1.4152513049104226e-03  1.1311140269839319e-01 -3.0237701260491710e-02  5.6940469747588155e-04  9.6459898699924719e-04
                         6.1085077949279132e-01 -1.4347622409856955e-01  7.2279827533827754e-04  1.1727268888090735e-03 -9.7109596159808922e-02  1.0196948071237479e-02
1.447750000000000e-01 -5.3681590096970799e-01  1.0073140206197947e-01 -6.0252319328615433e-04 -1.6897341452844371e-03  6.0895332425601423e-01 -1.5210263933916371e-01
                        -2.5843090528335222e-04 -1.5133203977068001e-03  1.1131980428482005e-01 -3.0535940723269459e-02  6.1397225866483473e-04  1.1151685917135271e-03
                         6.0854362926250005e-01 -1.5061591278242997e-01  8.1878219354757456e-04  1.2509113802993445e-03 -9.7433891069933221e-02  1.0993436060236974e-02
1.522625000000000e-01 -5.3595636817860215e-01  1.0574555084961511e-01 -6.5497850880630770e-04 -1.7214945270021000e-03  6.0659861785365321e-01 -1.5920893998686667e-01
                        -2.8364873208980290e-04 -1.6159344285399113e-03  1.0968294185516055e-01 -3.0699559816257098e-02  6.4181100856056203e-04  1.2029349557060710e-03
                         6.0616199087487110e-01 -1.5760114067743983e-01  8.9379077988811296e-04  1.3385170915600412e-03 -9.7719549353867480e-02  1.1834986540982114e-02
1.597500000000000e-01 -5.3510647266593003e-01  1.1070466365146352e-01 -6.5382364990828224e-04 -1.7962444753817695e-03  6.0418189730167404e-01 -1.6616227762785526e-01
                        -2.7852557631868891e-04 -1.7044958269876558e-03  1.0819305554218699e-01 -3.0742417268232455e-02  6.8568220005447251e-04  1.3040137688289368e-03
                         6.0370988735639008e-01 -1.6450881277704274e-01  9.7279983224043769e-04  1.4251572496780361e-03 -9.7936338258064401e-02  1.2644229311258283e-02
1.672375000000000e-01 -5.3424999613077329e-01  1.1574919847977964e-01 -6.1442950426650268e-04 -1.8027279137545207e-03  6.0170339884456991e-01 -1.7306606409319744e-01
                        -2.7055737955301862e-04 -1.7361966679451980e-03  1.0686486332116073e-01 -3.0732358578169899e-02  7.7191653617185007e-04  1.3980709301278191e-03
                         6.0125334534388164e-01 -1.7144164536487810e-01  1.0316977685345370e-03  1.4741432271584104e-03 -9.8088247765587847e-02  1.3538688758396674e-02
1.747250000000000e-01 -5.3333745950198419e-01  1.2082207998376554e-01 -5.8353460164955366e-04 -1.8183270202135635e-03  5.9923218320647020e-01 -1.8000596259337803e-01
                        -2.4161639230377285e-04 -1.8279760649097671e-03  1.0567429582756423e-01 -3.0641796348337386e-02  8.5535295195227729e-04  1.4980317194829269e-03
                         5.9878406781475302e-01 -1.7832059893783778e-01  1.0968946745282871e-03  1.5209579221151196e-03 -9.8147119343740041e-02  1.4508666557384899e-02
1.822125000000000e-01 -5.3229315912270214e-01  1.2601765074899043e-01 -5.8977390115789649e-04 -1.8099591342501946e-03  5.9666992730998458e-01 -1.8678291165562264e-01
                        -2.1497498409932259e-04 -1.8898208499799063e-03  1.0462838091598202e-01 -3.0479327767891536e-02  9.1015045232829123e-04  1.5825550042904645e-03
                         5.9615922695313572e-01 -1.8521514347631993e-01  1.2018242249442240e-03  1.5876936184385827e-03 -9.8184964893382118e-02  1.5459023945333463e-02
1.897000000000000e-01 -5.3117115347437238e-01  1.3118007956468597e-01 -5.6895598857391544e-04 -1.8355026653323670e-03  5.9401889750335801e-01 -1.9362079455384743e-01
                        -1.8432697569625844e-04 -1.9071085451613894e-03  1.0370286227499410e-01 -3.0282226150802751e-02  9.9255101842690057e-04  1.6908426990044699e-03
                         5.9350106729474450e-01 -1.9207999282460814e-01  1.2867438618845792e-03  1.6313593171217841e-03 -9.8172308413712731e-02  1.6539963521817538e-02
1.971875000000000e-01 -5.2995819204944494e-01  1.3635848264170905e-01 -5.5829599634039733e-04 -1.8535680670712293e-03  5.9123698795079738e-01 -2.0040491501343485e-01
                        -1.7249937638388890e-04 -1.9073226778265548e-03  1.0287989120294824e-01 -3.0075829820939946e-02  1.0001252537502254e-03  1.7379506094031391e-03
                         5.9080651682988361e-01 -1.9902223410334044e-01  1.3969480434277710e-03  1.6910257100453041e-03 -9.8020585191505194e-02  1.7633878798108588e-02
2.046750000000000e-01 -5.2869850175039357e-01  1.4150291640058965e-01 -5.6253613578745104e-04 -1.8115653939587641e-03  5.8847216815811898e-01 -2.0720683214416682e-01
                        -1.9360741122007030e-04 -1.8936753684463264e-03  1.0217296884603205e-01 -2.9900703383233321e-02  1.0828978017898060e-03  1.7467869064666602e-03
                         5.8809624788310955e-01 -2.0581922120105786e-01  1.4541411035104181e-03  1.7275055065920574e-03 -9.7918141186148902e-02  1.8668098125782132e-02
2.121625000000000e-01 -5.2746387747508960e-01  1.4665566721472972e-01 -5.9103559669130125e-04 -1.7852024032933931e-03  5.8575429120264122e-01 -2.1397169106711833e-01
                        -1.9645337616831793e-04 -1.8757722382076319e-03  1.0152793847062558e-01 -2.9703384303824291e-02  1.1381625512445895e-03  1.7648668083385525e-03
                         5.8532456394006360e-01 -2.1251980370272519e-01  1.5354432580633422e-03  1.8329333708264495e-03 -9.7753591049242264e-02  1.9717505934981429e-02
2.196500000000000e-01 -5.2617324014543121e-01  1.5179698874647124e-01 -6.0254521086176209e-04 -1.7233157996917670e-03  5.8289241640585610e-01 -2.2065496637908608e-01
                        -1.5993844084576103e-04 -1.8751834804304791e-03  1.0102974107437207e-01 -2.9474168407675996e-02  1.2502014206297002e-03  1.8834320439425013e-03
                         5.8253055121622976e-01 -2.1924962485159605e-01  1.5968782704558274e-03  1.8425323090345267e-03 -9.7565938527577473e-02  2.0811476243096587e-02
2.271375000000000e-01 -5.2483711882095840e-01  1.5685212986786082e-01 -6.9747081123677670e-04 -1.6947027245338519e-03  5.8003584243233108e-01 -2.2734490401438245e-01
                        -1.9100589067537477e-04 -1.8411333277194852e-03  1.0060777535096269e-01 -2.9312604367803429e-02  1.3737353912791782e-03  1.9682216064096304e-03
                         5.7968786452992238e-01 -2.2597172366515936e-01  1.7077120659656948e-03  1.8847325588978688e-03 -9.7353751699186072e-02  2.1843222286353669e-02
2.346250000000000e-01 -5.2327925214490423e-01  1.6192064643865756e-01 -7.4351997403775778e-04 -1.7447673469749251e-03  5.7706920064057898e-01 -2.3396962221016374e-01
                        -1.9673398357794580e-04 -1.8221524775192191e-03  1.0025707724432668e-01 -2.9111227673061436e-02  1.3930500611217585e-03  2.0145378601147956e-03
                         5.7667966548906968e-01 -2.3263767897027485e-01  1.7678750175002115e-03  2.0505303475631016e-03 -9.7165854053973530e-02  2.2877481096076534e-02
2.421125000000000e-01 -5.2163651766998331e-01  1.6694662755939113e-01 -7.2085671470738439e-04 -1.8106026857798801e-03  5.7403771337843668e-01 -2.4054994089145906e-01
                        -2.7960631018318638e-04 -1.8485571978032120e-03  9.9956858247287825e-02 -2.8977647261477450e-02  1.5049206688635835e-03  2.0656370661947285e-03
                         5.7370183996604518e-01 -2.3923942465562040e-01  1.8016256991060812e-03  2.1340418846052707e-03 -9.6985179410661204e-02  2.3887474293787195e-02
2.496000000000000e-01 -5.2012980076673876e-01  1.7181910245186272e-01 -7.8631884582872882e-04 -1.8761001401483113e-03  5.7093584412568565e-01 -2.4728018531823173e-01
                        -4.1969154235878270e-04 -1.8322594802874723e-03  9.9705264947381203e-02 -2.8920189959083541e-02  1.6278418272406663e-03  2.1177106066836925e-03
                         5.7069743978103937e-01 -2.4579654277093582e-01  1.8783654421984266e-03  2.1970932476371155e-03 -9.6725033371143770e-02  2.4937561081097914e-02
2.570875000000000e-01 -5.1856333541254718e-01  1.7675360870522919e-01 -7.9990284898538559e-04 -1.8547407704300599e-03  5.6778909398121558e-01 -2.5385036661113297e-01
                        -5.0629208732680397e-04 -1.8154133912891973e-03  9.9586355991624756e-02 -2.8873594130706091e-02  1.7431268578884912e-03  2.2004343247635141e-03
                         5.6769630888594880e-01 -2.5218237142529992e-01  1.9215897166092158e-03  2.1874069967856942e-03 -9.6441798269885304e-02  2.5865678112593871e-02
2.645750000000000e-01 -5.1701661776811347e-01  1.8166888396225797e-01 -8.3217648545652514e-04 -1.9117107855607890e-03  5.6474793471861884e-01 -2.6037132037164773e-01
                        -5.6535260469589566e-04 -1.8274868841268305e-03  9.9427282554682445e-02 -2.8830668735033888e-02  1.8626304544389930e-03  2.1945611362802560e-03
                         5.6454540724637636e-01 -2.5859755453856337e-01  1.9890972621605368e-03  2.2177576060367910e-03 -9.6079532690282715e-02  2.6732745757258404e-02
2.720625000000000e-01 -5.1525504225920171e-01  1.8663950732044124e-01 -8.8424949288103160e-04 -1.9102046764327999e-03  5.6153793913381400e-01 -2.6684317330385948e-01
                        -6.1468211947494911e-04 -1.8123604139557610e-03  9.9428557414424495e-02 -2.8742363868733949e-02  1.9289707024636245e-03  2.2427011204199042e-03
                         5.6133803987657660e-01 -2.6493204716849578e-01  2.0297453767927393e-03  2.2962115618931369e-03 -9.5831596720907117e-02  2.7650095800848453e-02
2.795500000000000e-01 -5.1340452174799978e-01  1.9159500911453803e-01 -9.8783474933434711e-04 -2.0041149943924954e-03  5.5818608116180701e-01 -2.7322584419804558e-01
                        -6.7316636427575127e-04 -1.8172732898661739e-03  9.9478919836772442e-02 -2.8737263336892867e-02  2.0442201259351935e-03  2.2941475847600510e-03
                         5.5805957366163561e-01 -2.7136012231087531e-01  2.1442403858059982e-03  2.3593885131379141e-03 -9.5507197847448086e-02  2.8593819604565945e-02
2.870375000000000e-01 -5.1150802575946397e-01  1.9653297392023097e-01 -1.0155363251798657e-03 -2.0950436990403469e-03  5.5478395844584527e-01 -2.7955579859335988e-01
                        -7.6775466833356454e-04 -1.7933241930718109e-03  9.9484807454952126e-02 -2.8769756804127352e-02  2.0697835876733756e-03  2.3034923400796661e-03
                         5.5461583856123609e-01 -2.7765662541790670e-01  2.2301822252118846e-03  2.4257069903964356e-03 -9.5082901442296419e-02  2.9552012088050972e-02
2.945250000000000e-01 -5.0952504275825705e-01  2.0155299649318095e-01 -9.5239594896620854e-04 -2.1054866396096879e-03  5.5128334364515930e-01 -2.8585191809068933e-01
                        -8.4353414784832381e-04 -1.8118024951115537e-03  9.9548333294081928e-02 -2.8812443926354282e-02  2.0909909530849465e-03  2.2752490698635585e-03
                         5.5116223971904743e-01 -2.8391270487942555e-01  2.2691468252225141e-03  2.4536057235260665e-03 -9.4757763118833979e-02  3.0503642661168166e-02
3.020125000000000e-01 -5.0770673436406566e-01  2.0636528283021235e-01 -9.8186725631851826e-04 -2.1434020581193535e-03  5.4769087060841604e-01 -2.9214482519972595e-01
